T23BC 000:051.069   SEGGER J-Link V6.62 Log File
T23BC 000:051.309   DLL Compiled: Jan 24 2020 16:32:09
T23BC 000:051.323   Logging started @ 2020-06-15 04:10
T23BC 000:051.339 JLINK_SetWarnOutHandler(...)
T23BC 000:051.350 - 0.014ms
T23BC 000:051.362 JLINK_OpenEx(...)
T23BC 000:052.808   Firmware: J-Link Ultra Rev.1 compiled Dec  3 2013 14:27:53
T23BC 000:053.032   Decompressing FW timestamp took 178 us
T23BC 000:055.336   Hardware: V1.00
T23BC 000:055.365   S/N: 281100043
T23BC 000:055.379   OEM: SEGGER
T23BC 000:055.391   Feature(s): RDI, FlashBP, FlashDL, JFlash, GDB
T23BC 000:056.884   TELNET listener socket opened on port 19021
T23BC 000:057.108   WEBSRV Starting webserver
T23BC 000:057.351   WEBSRV Webserver running on local port 19080
T23BC 000:057.376 - 6.019ms returns "O.K."
T23BC 000:057.407 JLINK_SetErrorOutHandler(...)
T23BC 000:057.418 - 0.017ms
T23BC 000:057.453 JLINK_ExecCommand("ProjectFile = "C:\Repos\Bootloader\JLinkSettings.ini"", ...). 
T23BC 000:069.734   Ref file found at: C:\Keil_v5\ARM\Segger\JLinkDevices.ref
T23BC 000:070.048   XML referenced by ref file: C:\Program Files (x86)\SEGGER\JLink\JLinkDevices.xml
T23BC 000:071.154   C:\Program Files (x86)\SEGGER\JLink\JLinkDevices.xml evaluated successfully.
T23BC 000:141.827 - 84.398ms returns 0x00
T23BC 000:143.592 JLINK_ExecCommand("Device = STM32F103RE", ...). 
T23BC 000:146.185   Device "STM32F103RE" selected.
T23BC 000:147.900 - 4.307ms returns 0x00
T23BC 000:147.947 JLINK_ExecCommand("DisableConnectionTimeout", ...). 
T23BC 000:147.968 - 0.011ms returns 0x01
T23BC 000:147.983 JLINK_GetHardwareVersion()
T23BC 000:147.994 - 0.016ms returns 0x2710
T23BC 000:148.024 JLINK_GetDLLVersion()  returns 66200
T23BC 000:148.047 JLINK_GetFirmwareString(...)
T23BC 000:148.059 - 0.017ms
T23BC 000:153.547 JLINK_GetDLLVersion()  returns 66200
T23BC 000:153.580 JLINK_GetCompileDateTime()
T23BC 000:153.587 - 0.010ms
T23BC 000:154.931 JLINK_GetFirmwareString(...)
T23BC 000:154.945 - 0.018ms
T23BC 000:156.286 JLINK_GetHardwareVersion()
T23BC 000:156.302 - 0.020ms returns 0x2710
T23BC 000:161.362 JLINK_TIF_Select(JLINKARM_TIF_JTAG)
T23BC 000:163.343 - 2.000ms returns 0x00
T23BC 000:163.387 JLINK_SetSpeed(50000)
T23BC 000:163.702 - 0.324ms
T23BC 000:163.721 JLINK_GetIdData(pIdData)
T23BC 000:167.821   TotalIRLen = 9, IRPrint = 0x0011
T23BC 000:170.338   JTAG chain detection found 2 devices:
T23BC 000:171.791    #0 Id: 0x3BA00477, IRLen: 04, CoreSight JTAG-DP
T23BC 000:173.114    #1 Id: 0x06414041, IRLen: 05, STM32 Boundary Scan
T23BC 000:184.894   TotalIRLen = 9, IRPrint = 0x0011
T23BC 000:187.628   JTAG chain detection found 2 devices:
T23BC 000:189.105    #0 Id: 0x3BA00477, IRLen: 04, CoreSight JTAG-DP
T23BC 000:190.473    #1 Id: 0x06414041, IRLen: 05, STM32 Boundary Scan
T23BC 000:195.330   Old FW that does not support reading DPIDR via DAP jobs
T23BC 000:202.292   Unknown DP version. Assuming DPv0
T23BC 000:204.107   Scanning AP map to find all available APs
T23BC 000:210.158   AP[1]: Stopped AP scan as end of AP map has been reached
T23BC 000:211.651   AP[0]: AHB-AP (IDR: 0x14770011)
T23BC 000:213.448   Iterating through AP map to find AHB-AP to use
T23BC 000:222.135   AP[0]: Core found
T23BC 000:223.587   AP[0]: AHB-AP ROM base: 0xE00FF000
T23BC 000:228.792   CPUID register: 0x411FC231. Implementer code: 0x41 (ARM)
T23BC 000:230.158   Found Cortex-M3 r1p1, Little endian.
T23BC 000:230.940    -- Max. mem block: 0x0000A830
T23BC 000:230.988    -- CPU_ReadMem(4 bytes @ 0xE000EDF0)
T23BC 000:232.740    -- CPU_WriteMem(4 bytes @ 0xE000EDF0)
T23BC 000:233.256    -- CPU_ReadMem(4 bytes @ 0xE0002000)
T23BC 000:235.639   FPUnit: 6 code (BP) slots and 2 literal slots
T23BC 000:235.681    -- CPU_ReadMem(4 bytes @ 0xE000EDFC)
T23BC 000:236.187    -- CPU_WriteMem(4 bytes @ 0xE000EDFC)
T23BC 000:236.707    -- CPU_ReadMem(4 bytes @ 0xE0001000)
T23BC 000:237.208    -- CPU_WriteMem(4 bytes @ 0xE0001000)
T23BC 000:237.705    -- CPU_ReadMem(4 bytes @ 0xE000ED88)
T23BC 000:238.204    -- CPU_WriteMem(4 bytes @ 0xE000ED88)
T23BC 000:238.705    -- CPU_ReadMem(4 bytes @ 0xE000ED88)
T23BC 000:239.204    -- CPU_WriteMem(4 bytes @ 0xE000ED88)
T23BC 000:241.335   CoreSight components:
T23BC 000:242.730   ROMTbl[0] @ E00FF000
T23BC 000:242.753    -- CPU_ReadMem(64 bytes @ 0xE00FF000)
T23BC 000:243.335    -- CPU_ReadMem(32 bytes @ 0xE000EFE0)
T23BC 000:245.424   ROMTbl[0][0]: E000E000, CID: B105E00D, PID: 001BB000 SCS
T23BC 000:245.456    -- CPU_ReadMem(32 bytes @ 0xE0001FE0)
T23BC 000:247.915   ROMTbl[0][1]: E0001000, CID: B105E00D, PID: 001BB002 DWT
T23BC 000:247.971    -- CPU_ReadMem(32 bytes @ 0xE0002FE0)
T23BC 000:250.791   ROMTbl[0][2]: E0002000, CID: B105E00D, PID: 000BB003 FPB
T23BC 000:250.838    -- CPU_ReadMem(32 bytes @ 0xE0000FE0)
T23BC 000:253.307   ROMTbl[0][3]: E0000000, CID: B105E00D, PID: 001BB001 ITM
T23BC 000:253.351    -- CPU_ReadMem(32 bytes @ 0xE0040FE0)
T23BC 000:255.705   ROMTbl[0][4]: E0040000, CID: B105900D, PID: 001BB923 TPIU-Lite
T23BC 000:255.743    -- CPU_ReadMem(32 bytes @ 0xE0041FE0)
T23BC 000:257.874   ROMTbl[0][5]: E0041000, CID: B105900D, PID: 101BB924 ETM-M3
T23BC 000:257.938   pIdData->ScanLen=9
T23BC 000:257.950   
T23BC 000:257.961   pIdData->NumDevices=2
T23BC 000:257.976   
T23BC 000:257.987   pIdData->aId[0]=0x3BA00477
T23BC 000:258.002   
T23BC 000:258.013   pIdData->aIrRead[0]=0
T23BC 000:258.027   
T23BC 000:258.035   pIdData->aScanLen[0]=0
T23BC 000:258.044   
T23BC 000:258.050   pIdData->aScanRead[0]=0
T23BC 000:258.059   
T23BC 000:258.066 - 94.348ms
T23BC 000:258.085 JLINK_JTAG_GetDeviceID(DeviceIndex = 0)
T23BC 000:258.093 - 0.011ms returns 0x3BA00477
T23BC 000:258.104 JLINK_JTAG_GetDeviceInfo(DeviceIndex = 0)
T23BC 000:258.111 - 0.010ms returns 0x00
T23BC 000:258.120 JLINK_JTAG_GetDeviceID(DeviceIndex = 1)
T23BC 000:258.127 - 0.010ms returns 0x6414041
T23BC 000:258.136 JLINK_JTAG_GetDeviceInfo(DeviceIndex = 1)
T23BC 000:258.143 - 0.010ms returns 0x00
T23BC 000:258.153 JLINK_GetDLLVersion()  returns 66200
T23BC 000:258.238 JLINK_CORE_GetFound()
T23BC 000:258.251 - 0.017ms returns 0x30000FF
T23BC 000:258.266 JLINK_GetDebugInfo(0x100 = JLINKARM_ROM_TABLE_ADDR_INDEX)
T23BC 000:258.277   Value=0xE00FF000
T23BC 000:258.290 - 0.027ms returns 0x00
T23BC 000:259.846 JLINK_ReadMem (0xE00FF000, 0x0020 Bytes, ...)
T23BC 000:259.894    -- CPU_ReadMem(32 bytes @ 0xE00FF000)
T23BC 000:260.590   Data:  03 F0 F0 FF 03 20 F0 FF 03 30 F0 FF 03 10 F0 FF ...
T23BC 000:260.608 - 0.766ms returns 0x00
T23BC 000:260.622 JLINK_ReadMem (0xE000EFF0, 0x0010 Bytes, ...)
T23BC 000:260.637    -- CPU_ReadMem(16 bytes @ 0xE000EFF0)
T23BC 000:261.079   Data:  0D 00 00 00 E0 00 00 00 05 00 00 00 B1 00 00 00
T23BC 000:261.095 - 0.477ms returns 0x00
T23BC 000:261.107 JLINK_ReadMem (0xE000EFD0, 0x0020 Bytes, ...)
T23BC 000:261.122    -- CPU_ReadMem(32 bytes @ 0xE000EFD0)
T23BC 000:261.704   Data:  04 00 00 00 00 00 00 00 00 00 00 00 00 00 00 00 ...
T23BC 000:261.720 - 0.617ms returns 0x00
T23BC 000:261.732 JLINK_ReadMem (0xE0001FF0, 0x0010 Bytes, ...)
T23BC 000:261.747    -- CPU_ReadMem(16 bytes @ 0xE0001FF0)
T23BC 000:262.206   Data:  0D 00 00 00 E0 00 00 00 05 00 00 00 B1 00 00 00
T23BC 000:262.222 - 0.493ms returns 0x00
T23BC 000:262.234 JLINK_ReadMem (0xE0001FD0, 0x0020 Bytes, ...)
T23BC 000:262.248    -- CPU_ReadMem(32 bytes @ 0xE0001FD0)
T23BC 000:262.828   Data:  04 00 00 00 00 00 00 00 00 00 00 00 00 00 00 00 ...
T23BC 000:262.843 - 0.614ms returns 0x00
T23BC 000:262.856 JLINK_ReadMem (0xE0002FF0, 0x0010 Bytes, ...)
T23BC 000:262.870    -- CPU_ReadMem(16 bytes @ 0xE0002FF0)
T23BC 000:263.328   Data:  0D 00 00 00 E0 00 00 00 05 00 00 00 B1 00 00 00
T23BC 000:263.344 - 0.493ms returns 0x00
T23BC 000:263.357 JLINK_ReadMem (0xE0002FD0, 0x0020 Bytes, ...)
T23BC 000:263.371    -- CPU_ReadMem(32 bytes @ 0xE0002FD0)
T23BC 000:263.924   Data:  04 00 00 00 00 00 00 00 00 00 00 00 00 00 00 00 ...
T23BC 000:263.937 - 0.584ms returns 0x00
T23BC 000:263.952 JLINK_ReadMem (0xE0000FF0, 0x0010 Bytes, ...)
T23BC 000:263.970    -- CPU_ReadMem(16 bytes @ 0xE0000FF0)
T23BC 000:264.435   Data:  0D 00 00 00 E0 00 00 00 05 00 00 00 B1 00 00 00
T23BC 000:264.475 - 0.531ms returns 0x00
T23BC 000:264.493 JLINK_ReadMem (0xE0000FD0, 0x0020 Bytes, ...)
T23BC 000:264.516    -- CPU_ReadMem(32 bytes @ 0xE0000FD0)
T23BC 000:265.080   Data:  04 00 00 00 00 00 00 00 00 00 00 00 00 00 00 00 ...
T23BC 000:265.118 - 0.630ms returns 0x00
T23BC 000:265.137 JLINK_ReadMem (0xE0040FF0, 0x0010 Bytes, ...)
T23BC 000:265.165    -- CPU_ReadMem(16 bytes @ 0xE0040FF0)
T23BC 000:265.716   Data:  0D 00 00 00 90 00 00 00 05 00 00 00 B1 00 00 00
T23BC 000:265.742 - 0.609ms returns 0x00
T23BC 000:265.757 JLINK_ReadMem (0xE0040FD0, 0x0020 Bytes, ...)
T23BC 000:265.777    -- CPU_ReadMem(32 bytes @ 0xE0040FD0)
T23BC 000:266.351   Data:  04 00 00 00 00 00 00 00 00 00 00 00 00 00 00 00 ...
T23BC 000:266.371 - 0.618ms returns 0x00
T23BC 000:266.385 JLINK_ReadMem (0xE0041FF0, 0x0010 Bytes, ...)
T23BC 000:266.401    -- CPU_ReadMem(16 bytes @ 0xE0041FF0)
T23BC 000:266.830   Data:  0D 00 00 00 90 00 00 00 05 00 00 00 B1 00 00 00
T23BC 000:266.848 - 0.468ms returns 0x00
T23BC 000:266.861 JLINK_ReadMem (0xE0041FD0, 0x0020 Bytes, ...)
T23BC 000:266.876    -- CPU_ReadMem(32 bytes @ 0xE0041FD0)
T23BC 000:267.456   Data:  04 00 00 00 00 00 00 00 00 00 00 00 00 00 00 00 ...
T23BC 000:267.473 - 0.617ms returns 0x00
T23BC 000:267.487   JLINK_ReadMemU32(0xE000ED00, 0x0001 Items, ...)
T23BC 000:267.505    -- CPU_ReadMem(4 bytes @ 0xE000ED00)
T23BC 000:267.957   Data:  31 C2 1F 41
T23BC 000:267.975    - CPUID
T23BC 000:267.988 - 0.505ms returns 1
T23BC 000:268.004 JLINK_SetResetType(JLINKARM_CM3_RESET_TYPE_NORMAL)
T23BC 000:268.014 - 0.014ms returns JLINKARM_CM3_RESET_TYPE_NORMAL
T23BC 000:268.023 JLINK_Reset()
T23BC 000:268.048   CPU is running
T23BC 000:268.061    -- CPU_WriteMem(4 bytes @ 0xE000EDF0)
T23BC 000:268.453   CPU is running
T23BC 000:268.470    -- CPU_WriteMem(4 bytes @ 0xE000EDFC)
T23BC 000:270.728   Reset: Halt core after reset via DEMCR.VC_CORERESET.
T23BC 000:272.833   Reset: Reset device via AIRCR.SYSRESETREQ.
T23BC 000:272.869   CPU is running
T23BC 000:272.883    -- CPU_WriteMem(4 bytes @ 0xE000ED0C)
T23BC 000:323.946    -- CPU_ReadMem(4 bytes @ 0xE000EDF0)
T23BC 000:324.447    -- CPU_ReadMem(4 bytes @ 0xE000EDF0)
T23BC 000:324.949   CPU is running
T23BC 000:324.984    -- CPU_WriteMem(4 bytes @ 0xE000EDF0)
T23BC 000:325.450   CPU is running
T23BC 000:325.494    -- CPU_WriteMem(4 bytes @ 0xE000EDFC)
T23BC 000:331.970    -- CPU_ReadMem(4 bytes @ 0xE000EDF0)
T23BC 000:334.371    -- CPU_WriteMem(4 bytes @ 0xE000EDFC)
T23BC 000:334.983    -- CPU_WriteMem(4 bytes @ 0xE0001028)
T23BC 000:335.446    -- CPU_WriteMem(4 bytes @ 0xE0001038)
T23BC 000:335.942    -- CPU_WriteMem(4 bytes @ 0xE0001048)
T23BC 000:336.424    -- CPU_WriteMem(4 bytes @ 0xE0001058)
T23BC 000:336.801    -- CPU_WriteMem(4 bytes @ 0xE0002000)
T23BC 000:337.173    -- CPU_ReadMem(4 bytes @ 0xE000EDFC)
T23BC 000:337.547    -- CPU_ReadMem(4 bytes @ 0xE0001000)
T23BC 000:337.956 - 69.946ms
T23BC 000:338.031 JLINK_Halt()
T23BC 000:338.042 - 0.014ms returns 0x00
T23BC 000:338.051 JLINK_IsHalted()
T23BC 000:338.059 - 0.011ms returns TRUE
T23BC 000:338.070   JLINK_ReadMemU32(0xE000EDF0, 0x0001 Items, ...)
T23BC 000:338.092    -- CPU_ReadMem(4 bytes @ 0xE000EDF0)
T23BC 000:338.548   Data:  03 00 03 00
T23BC 000:338.562    - DHCSR
T23BC 000:338.571 - 0.505ms returns 1
T23BC 000:338.588   JLINK_WriteU32(0xE000EDF0, 0xA05F0003)
T23BC 000:338.598    - DHCSR
T23BC 000:338.624    -- CPU_WriteMem(4 bytes @ 0xE000EDF0)
T23BC 000:339.047 - 0.466ms returns 0
T23BC 000:339.061   JLINK_WriteU32(0xE000EDFC, 0x01000000)
T23BC 000:339.071    - DEMCR
T23BC 000:339.086    -- CPU_WriteMem(4 bytes @ 0xE000EDFC)
T23BC 000:339.546 - 0.492ms returns 0
T23BC 000:345.413 JLINK_GetHWStatus(...)
T23BC 000:345.812 - 0.407ms returns 0x00
T23BC 000:351.670 JLINK_GetNumBPUnits(Type = 0xFFFFFF00)
T23BC 000:351.704 - 0.038ms returns 0x06
T23BC 000:351.714 JLINK_GetNumBPUnits(Type = 0xF0)
T23BC 000:351.721 - 0.010ms returns 0x2000
T23BC 000:351.736 JLINK_GetNumWPUnits()
T23BC 000:351.748 - 0.015ms returns 0x04
T23BC 000:356.297 JLINK_GetSpeed()
T23BC 000:356.327 - 0.033ms returns 0x61A8
T23BC 000:358.782   JLINK_ReadMemU32(0xE000E004, 0x0001 Items, ...)
T23BC 000:358.817    -- CPU_ReadMem(4 bytes @ 0xE000E004)
T23BC 000:359.299   Data:  01 00 00 00
T23BC 000:359.314 - 0.536ms returns 1
T23BC 000:359.325   JLINK_ReadMemU32(0xE000E004, 0x0001 Items, ...)
T23BC 000:359.340    -- CPU_ReadMem(4 bytes @ 0xE000E004)
T23BC 000:359.797   Data:  01 00 00 00
T23BC 000:359.811 - 0.490ms returns 1
T23BC 000:359.822 JLINK_WriteMem(0xE0001000, 0x001C Bytes, ...)
T23BC 000:359.831   Data:  01 00 00 00 00 00 00 00 00 00 00 00 00 00 00 00 ...
T23BC 000:360.465    -- CPU_WriteMem(28 bytes @ 0xE0001000)
T23BC 000:360.933 - 1.122ms returns 0x1C
T23BC 000:360.958 JLINK_ReadMem (0xE0001000, 0x001C Bytes, ...)
T23BC 000:360.980    -- CPU_ReadMem(28 bytes @ 0xE0001000)
T23BC 000:361.551   Data:  01 00 00 40 00 00 00 00 00 00 00 00 00 00 00 00 ...
T23BC 000:361.569 - 0.615ms returns 0x00
T23BC 000:361.585 JLINK_Halt()
T23BC 000:361.593 - 0.011ms returns 0x00
T23BC 000:361.601 JLINK_IsHalted()
T23BC 000:361.609 - 0.011ms returns TRUE
T23BC 000:365.848 JLINK_WriteMem(0x20000000, 0x0164 Bytes, ...)
T23BC 000:365.878   Data:  00 BE 0A E0 0D 78 2D 06 68 40 08 24 40 00 00 D3 ...
T23BC 000:366.600    -- CPU_WriteMem(356 bytes @ 0x20000000)
T23BC 000:368.311 - 2.482ms returns 0x164
T23BC 000:368.412 JLINK_WriteReg(R0, 0x08000000)
T23BC 000:368.433 - 0.028ms returns 0x00
T23BC 000:368.448 JLINK_WriteReg(R1, 0x00B71B00)
T23BC 000:368.462 - 0.019ms returns 0x00
T23BC 000:368.473 JLINK_WriteReg(R2, 0x00000001)
T23BC 000:368.481 - 0.012ms returns 0x00
T23BC 000:368.490 JLINK_WriteReg(R3, 0x00000000)
T23BC 000:368.498 - 0.011ms returns 0x00
T23BC 000:368.506 JLINK_WriteReg(R4, 0x00000000)
T23BC 000:368.515 - 0.012ms returns 0x00
T23BC 000:368.524 JLINK_WriteReg(R5, 0x00000000)
T23BC 000:368.532 - 0.012ms returns 0x00
T23BC 000:368.541 JLINK_WriteReg(R6, 0x00000000)
T23BC 000:368.549 - 0.011ms returns 0x00
T23BC 000:368.558 JLINK_WriteReg(R7, 0x00000000)
T23BC 000:368.566 - 0.012ms returns 0x00
T23BC 000:368.576 JLINK_WriteReg(R8, 0x00000000)
T23BC 000:368.598 - 0.026ms returns 0x00
T23BC 000:368.608 JLINK_WriteReg(R9, 0x20000160)
T23BC 000:368.616 - 0.012ms returns 0x00
T23BC 000:368.625 JLINK_WriteReg(R10, 0x00000000)
T23BC 000:368.633 - 0.012ms returns 0x00
T23BC 000:368.643 JLINK_WriteReg(R11, 0x00000000)
T23BC 000:368.651 - 0.012ms returns 0x00
T23BC 000:368.660 JLINK_WriteReg(R12, 0x00000000)
T23BC 000:368.667 - 0.011ms returns 0x00
T23BC 000:368.676 JLINK_WriteReg(R13 (SP), 0x20000800)
T23BC 000:368.684 - 0.012ms returns 0x00
T23BC 000:368.693 JLINK_WriteReg(R14, 0x20000001)
T23BC 000:368.700 - 0.011ms returns 0x00
T23BC 000:368.709 JLINK_WriteReg(R15 (PC), 0x20000038)
T23BC 000:368.720 - 0.015ms returns 0x00
T23BC 000:368.729 JLINK_WriteReg(XPSR, 0x01000000)
T23BC 000:368.736 - 0.011ms returns 0x00
T23BC 000:368.745 JLINK_WriteReg(MSP, 0x20000800)
T23BC 000:368.752 - 0.011ms returns 0x00
T23BC 000:368.761 JLINK_WriteReg(PSP, 0x20000800)
T23BC 000:368.769 - 0.011ms returns 0x00
T23BC 000:368.777 JLINK_WriteReg(CFBP, 0x00000000)
T23BC 000:368.785 - 0.011ms returns 0x00
T23BC 000:368.794   JLINK_SetBPEx(Addr = 0x20000000, Type = 0xFFFFFFF2)
T23BC 000:368.812    -- CPU_ReadMem(2 bytes @ 0x20000000)
T23BC 000:369.306 - 0.521ms returns 0x00000001
T23BC 000:369.323 JLINK_Go()
T23BC 000:369.336    -- CPU_WriteMem(2 bytes @ 0x20000000)
T23BC 000:369.808    -- CPU_ReadMem(4 bytes @ 0xE0001000)
T23BC 000:370.174    -- CPU_WriteMem(4 bytes @ 0xE0002008)
T23BC 000:370.188    -- CPU_WriteMem(4 bytes @ 0xE000200C)
T23BC 000:370.199    -- CPU_WriteMem(4 bytes @ 0xE0002010)
T23BC 000:370.209    -- CPU_WriteMem(4 bytes @ 0xE0002014)
T23BC 000:370.219    -- CPU_WriteMem(4 bytes @ 0xE0002018)
T23BC 000:370.229    -- CPU_WriteMem(4 bytes @ 0xE000201C)
T23BC 000:371.300    -- CPU_WriteMem(4 bytes @ 0xE0001004)
T23BC 000:372.921 - 3.678ms
T23BC 000:373.012 JLINK_IsHalted()
T23BC 000:374.685    -- CPU_ReadMem(2 bytes @ 0x20000000)
T23BC 000:375.048 - 2.042ms returns TRUE
T23BC 000:375.062 JLINK_ReadReg(R15 (PC))
T23BC 000:375.072 - 0.013ms returns 0x20000000
T23BC 000:375.081 JLINK_ClrBPEx(BPHandle = 0x00000001)
T23BC 000:375.089 - 0.011ms returns 0x00
T23BC 000:375.098 JLINK_ReadReg(R0)
T23BC 000:375.106 - 0.011ms returns 0x00000000
T23BC 000:375.508 JLINK_WriteReg(R0, 0x08000000)
T23BC 000:375.524 - 0.020ms returns 0x00
T23BC 000:375.533 JLINK_WriteReg(R1, 0x00000800)
T23BC 000:375.541 - 0.011ms returns 0x00
T23BC 000:375.549 JLINK_WriteReg(R2, 0x000000FF)
T23BC 000:375.557 - 0.011ms returns 0x00
T23BC 000:375.565 JLINK_WriteReg(R3, 0x00000000)
T23BC 000:375.573 - 0.011ms returns 0x00
T23BC 000:375.581 JLINK_WriteReg(R4, 0x00000000)
T23BC 000:375.589 - 0.011ms returns 0x00
T23BC 000:375.597 JLINK_WriteReg(R5, 0x00000000)
T23BC 000:375.605 - 0.011ms returns 0x00
T23BC 000:375.613 JLINK_WriteReg(R6, 0x00000000)
T23BC 000:375.621 - 0.011ms returns 0x00
T23BC 000:375.629 JLINK_WriteReg(R7, 0x00000000)
T23BC 000:375.637 - 0.011ms returns 0x00
T23BC 000:375.645 JLINK_WriteReg(R8, 0x00000000)
T23BC 000:375.653 - 0.011ms returns 0x00
T23BC 000:375.661 JLINK_WriteReg(R9, 0x20000160)
T23BC 000:375.669 - 0.011ms returns 0x00
T23BC 000:375.677 JLINK_WriteReg(R10, 0x00000000)
T23BC 000:375.685 - 0.011ms returns 0x00
T23BC 000:375.693 JLINK_WriteReg(R11, 0x00000000)
T23BC 000:375.701 - 0.011ms returns 0x00
T23BC 000:375.709 JLINK_WriteReg(R12, 0x00000000)
T23BC 000:375.717 - 0.011ms returns 0x00
T23BC 000:375.725 JLINK_WriteReg(R13 (SP), 0x20000800)
T23BC 000:375.733 - 0.011ms returns 0x00
T23BC 000:375.742 JLINK_WriteReg(R14, 0x20000001)
T23BC 000:375.749 - 0.011ms returns 0x00
T23BC 000:375.758 JLINK_WriteReg(R15 (PC), 0x20000020)
T23BC 000:375.765 - 0.011ms returns 0x00
T23BC 000:375.774 JLINK_WriteReg(XPSR, 0x01000000)
T23BC 000:375.781 - 0.011ms returns 0x00
T23BC 000:375.790 JLINK_WriteReg(MSP, 0x20000800)
T23BC 000:375.797 - 0.011ms returns 0x00
T23BC 000:375.806 JLINK_WriteReg(PSP, 0x20000800)
T23BC 000:375.813 - 0.011ms returns 0x00
T23BC 000:375.822 JLINK_WriteReg(CFBP, 0x00000000)
T23BC 000:375.829 - 0.011ms returns 0x00
T23BC 000:375.839   JLINK_SetBPEx(Addr = 0x20000000, Type = 0xFFFFFFF2)
T23BC 000:375.850 - 0.015ms returns 0x00000002
T23BC 000:375.859 JLINK_Go()
T23BC 000:375.873    -- CPU_ReadMem(4 bytes @ 0xE0001000)
T23BC 000:377.551 - 1.712ms
T23BC 000:377.581 JLINK_IsHalted()
T23BC 000:379.332    -- CPU_ReadMem(2 bytes @ 0x20000000)
T23BC 000:379.799 - 2.225ms returns TRUE
T23BC 000:379.815 JLINK_ReadReg(R15 (PC))
T23BC 000:379.827 - 0.015ms returns 0x20000000
T23BC 000:379.836 JLINK_ClrBPEx(BPHandle = 0x00000002)
T23BC 000:379.844 - 0.011ms returns 0x00
T23BC 000:379.853 JLINK_ReadReg(R0)
T23BC 000:379.861 - 0.011ms returns 0x00000001
T23BC 000:379.873 JLINK_WriteReg(R0, 0x08000000)
T23BC 000:379.885 - 0.016ms returns 0x00
T23BC 000:379.894 JLINK_WriteReg(R1, 0x00000800)
T23BC 000:379.901 - 0.011ms returns 0x00
T23BC 000:379.910 JLINK_WriteReg(R2, 0x000000FF)
T23BC 000:379.917 - 0.011ms returns 0x00
T23BC 000:379.926 JLINK_WriteReg(R3, 0x00000000)
T23BC 000:379.933 - 0.011ms returns 0x00
T23BC 000:379.942 JLINK_WriteReg(R4, 0x00000000)
T23BC 000:379.949 - 0.011ms returns 0x00
T23BC 000:379.958 JLINK_WriteReg(R5, 0x00000000)
T23BC 000:379.965 - 0.011ms returns 0x00
T23BC 000:379.974 JLINK_WriteReg(R6, 0x00000000)
T23BC 000:379.981 - 0.011ms returns 0x00
T23BC 000:379.989 JLINK_WriteReg(R7, 0x00000000)
T23BC 000:379.997 - 0.011ms returns 0x00
T23BC 000:380.005 JLINK_WriteReg(R8, 0x00000000)
T23BC 000:380.013 - 0.011ms returns 0x00
T23BC 000:380.021 JLINK_WriteReg(R9, 0x20000160)
T23BC 000:380.029 - 0.011ms returns 0x00
T23BC 000:380.037 JLINK_WriteReg(R10, 0x00000000)
T23BC 000:380.045 - 0.011ms returns 0x00
T23BC 000:380.053 JLINK_WriteReg(R11, 0x00000000)
T23BC 000:380.061 - 0.011ms returns 0x00
T23BC 000:380.069 JLINK_WriteReg(R12, 0x00000000)
T23BC 000:380.085 - 0.022ms returns 0x00
T23BC 000:380.097 JLINK_WriteReg(R13 (SP), 0x20000800)
T23BC 000:380.105 - 0.011ms returns 0x00
T23BC 000:380.113 JLINK_WriteReg(R14, 0x20000001)
T23BC 000:380.121 - 0.011ms returns 0x00
T23BC 000:380.129 JLINK_WriteReg(R15 (PC), 0x200000B6)
T23BC 000:380.137 - 0.011ms returns 0x00
T23BC 000:380.146 JLINK_WriteReg(XPSR, 0x01000000)
T23BC 000:380.153 - 0.011ms returns 0x00
T23BC 000:380.162 JLINK_WriteReg(MSP, 0x20000800)
T23BC 000:380.169 - 0.011ms returns 0x00
T23BC 000:380.178 JLINK_WriteReg(PSP, 0x20000800)
T23BC 000:380.186 - 0.011ms returns 0x00
T23BC 000:380.194 JLINK_WriteReg(CFBP, 0x00000000)
T23BC 000:380.202 - 0.011ms returns 0x00
T23BC 000:380.211   JLINK_SetBPEx(Addr = 0x20000000, Type = 0xFFFFFFF2)
T23BC 000:380.222 - 0.015ms returns 0x00000003
T23BC 000:380.231 JLINK_Go()
T23BC 000:380.245    -- CPU_ReadMem(4 bytes @ 0xE0001000)
T23BC 000:382.072 - 1.879ms
T23BC 000:382.132 JLINK_IsHalted()
T23BC 000:382.734 - 0.620ms returns FALSE
T23BC 000:430.895 JLINK_IsHalted()
T23BC 000:432.958    -- CPU_ReadMem(2 bytes @ 0x20000000)
T23BC 000:433.433 - 2.556ms returns TRUE
T23BC 000:433.462 JLINK_ReadReg(R15 (PC))
T23BC 000:433.476 - 0.018ms returns 0x20000000
T23BC 000:433.486 JLINK_ClrBPEx(BPHandle = 0x00000003)
T23BC 000:433.495 - 0.012ms returns 0x00
T23BC 000:433.504 JLINK_ReadReg(R0)
T23BC 000:433.512 - 0.011ms returns 0x00000000
T23BC 000:434.237 JLINK_WriteReg(R0, 0x08000800)
T23BC 000:434.268 - 0.036ms returns 0x00
T23BC 000:434.278 JLINK_WriteReg(R1, 0x00000800)
T23BC 000:434.285 - 0.011ms returns 0x00
T23BC 000:434.294 JLINK_WriteReg(R2, 0x000000FF)
T23BC 000:434.302 - 0.011ms returns 0x00
T23BC 000:434.310 JLINK_WriteReg(R3, 0x00000000)
T23BC 000:434.318 - 0.011ms returns 0x00
T23BC 000:434.326 JLINK_WriteReg(R4, 0x00000000)
T23BC 000:434.334 - 0.011ms returns 0x00
T23BC 000:434.342 JLINK_WriteReg(R5, 0x00000000)
T23BC 000:434.350 - 0.011ms returns 0x00
T23BC 000:434.358 JLINK_WriteReg(R6, 0x00000000)
T23BC 000:434.366 - 0.011ms returns 0x00
T23BC 000:434.375 JLINK_WriteReg(R7, 0x00000000)
T23BC 000:434.382 - 0.011ms returns 0x00
T23BC 000:434.391 JLINK_WriteReg(R8, 0x00000000)
T23BC 000:434.398 - 0.011ms returns 0x00
T23BC 000:434.407 JLINK_WriteReg(R9, 0x20000160)
T23BC 000:434.415 - 0.011ms returns 0x00
T23BC 000:434.423 JLINK_WriteReg(R10, 0x00000000)
T23BC 000:434.431 - 0.011ms returns 0x00
T23BC 000:434.440 JLINK_WriteReg(R11, 0x00000000)
T23BC 000:434.447 - 0.011ms returns 0x00
T23BC 000:434.456 JLINK_WriteReg(R12, 0x00000000)
T23BC 000:434.463 - 0.011ms returns 0x00
T23BC 000:434.472 JLINK_WriteReg(R13 (SP), 0x20000800)
T23BC 000:434.480 - 0.012ms returns 0x00
T23BC 000:434.489 JLINK_WriteReg(R14, 0x20000001)
T23BC 000:434.497 - 0.011ms returns 0x00
T23BC 000:434.505 JLINK_WriteReg(R15 (PC), 0x20000020)
T23BC 000:434.513 - 0.011ms returns 0x00
T23BC 000:434.521 JLINK_WriteReg(XPSR, 0x01000000)
T23BC 000:434.529 - 0.011ms returns 0x00
T23BC 000:434.537 JLINK_WriteReg(MSP, 0x20000800)
T23BC 000:434.545 - 0.011ms returns 0x00
T23BC 000:434.554 JLINK_WriteReg(PSP, 0x20000800)
T23BC 000:434.561 - 0.011ms returns 0x00
T23BC 000:434.570 JLINK_WriteReg(CFBP, 0x00000000)
T23BC 000:434.577 - 0.011ms returns 0x00
T23BC 000:434.587   JLINK_SetBPEx(Addr = 0x20000000, Type = 0xFFFFFFF2)
T23BC 000:434.599 - 0.016ms returns 0x00000004
T23BC 000:434.608 JLINK_Go()
T23BC 000:434.629    -- CPU_ReadMem(4 bytes @ 0xE0001000)
T23BC 000:436.298 - 1.710ms
T23BC 000:436.328 JLINK_IsHalted()
T23BC 000:438.066    -- CPU_ReadMem(2 bytes @ 0x20000000)
T23BC 000:438.549 - 2.228ms returns TRUE
T23BC 000:438.564 JLINK_ReadReg(R15 (PC))
T23BC 000:438.574 - 0.014ms returns 0x20000000
T23BC 000:438.583 JLINK_ClrBPEx(BPHandle = 0x00000004)
T23BC 000:438.591 - 0.012ms returns 0x00
T23BC 000:438.600 JLINK_ReadReg(R0)
T23BC 000:438.608 - 0.011ms returns 0x00000001
T23BC 000:438.620 JLINK_WriteReg(R0, 0x08000800)
T23BC 000:438.628 - 0.012ms returns 0x00
T23BC 000:438.636 JLINK_WriteReg(R1, 0x00000800)
T23BC 000:438.644 - 0.016ms returns 0x00
T23BC 000:438.661 JLINK_WriteReg(R2, 0x000000FF)
T23BC 000:438.668 - 0.011ms returns 0x00
T23BC 000:438.677 JLINK_WriteReg(R3, 0x00000000)
T23BC 000:438.685 - 0.011ms returns 0x00
T23BC 000:438.693 JLINK_WriteReg(R4, 0x00000000)
T23BC 000:438.701 - 0.011ms returns 0x00
T23BC 000:438.709 JLINK_WriteReg(R5, 0x00000000)
T23BC 000:438.717 - 0.011ms returns 0x00
T23BC 000:438.725 JLINK_WriteReg(R6, 0x00000000)
T23BC 000:438.733 - 0.011ms returns 0x00
T23BC 000:438.741 JLINK_WriteReg(R7, 0x00000000)
T23BC 000:438.749 - 0.011ms returns 0x00
T23BC 000:438.757 JLINK_WriteReg(R8, 0x00000000)
T23BC 000:438.765 - 0.012ms returns 0x00
T23BC 000:438.774 JLINK_WriteReg(R9, 0x20000160)
T23BC 000:438.781 - 0.011ms returns 0x00
T23BC 000:438.790 JLINK_WriteReg(R10, 0x00000000)
T23BC 000:438.797 - 0.011ms returns 0x00
T23BC 000:438.806 JLINK_WriteReg(R11, 0x00000000)
T23BC 000:438.814 - 0.011ms returns 0x00
T23BC 000:438.822 JLINK_WriteReg(R12, 0x00000000)
T23BC 000:438.830 - 0.011ms returns 0x00
T23BC 000:438.841 JLINK_WriteReg(R13 (SP), 0x20000800)
T23BC 000:438.850 - 0.012ms returns 0x00
T23BC 000:438.859 JLINK_WriteReg(R14, 0x20000001)
T23BC 000:438.866 - 0.011ms returns 0x00
T23BC 000:438.875 JLINK_WriteReg(R15 (PC), 0x200000B6)
T23BC 000:438.882 - 0.011ms returns 0x00
T23BC 000:438.891 JLINK_WriteReg(XPSR, 0x01000000)
T23BC 000:438.899 - 0.011ms returns 0x00
T23BC 000:438.907 JLINK_WriteReg(MSP, 0x20000800)
T23BC 000:438.915 - 0.011ms returns 0x00
T23BC 000:438.923 JLINK_WriteReg(PSP, 0x20000800)
T23BC 000:438.930 - 0.011ms returns 0x00
T23BC 000:438.939 JLINK_WriteReg(CFBP, 0x00000000)
T23BC 000:438.947 - 0.011ms returns 0x00
T23BC 000:438.956   JLINK_SetBPEx(Addr = 0x20000000, Type = 0xFFFFFFF2)
T23BC 000:438.967 - 0.015ms returns 0x00000005
T23BC 000:438.976 JLINK_Go()
T23BC 000:438.990    -- CPU_ReadMem(4 bytes @ 0xE0001000)
T23BC 000:440.671 - 1.703ms
T23BC 000:440.685 JLINK_IsHalted()
T23BC 000:441.047 - 0.368ms returns FALSE
T23BC 000:444.852 JLINK_IsHalted()
T23BC 000:445.424 - 0.582ms returns FALSE
T23BC 000:446.847 JLINK_IsHalted()
T23BC 000:447.297 - 0.458ms returns FALSE
T23BC 000:452.901 JLINK_IsHalted()
T23BC 000:453.432 - 0.544ms returns FALSE
T23BC 000:454.842 JLINK_IsHalted()
T23BC 000:455.297 - 0.462ms returns FALSE
T23BC 000:456.854 JLINK_IsHalted()
T23BC 000:457.295 - 0.448ms returns FALSE
T23BC 000:458.832 JLINK_IsHalted()
T23BC 000:459.294 - 0.469ms returns FALSE
T23BC 000:460.839 JLINK_IsHalted()
T23BC 000:461.301 - 0.469ms returns FALSE
T23BC 000:462.836 JLINK_IsHalted()
T23BC 000:464.610    -- CPU_ReadMem(2 bytes @ 0x20000000)
T23BC 000:465.186 - 2.365ms returns TRUE
T23BC 000:465.219 JLINK_ReadReg(R15 (PC))
T23BC 000:465.242 - 0.032ms returns 0x20000000
T23BC 000:465.262 JLINK_ClrBPEx(BPHandle = 0x00000005)
T23BC 000:465.280 - 0.024ms returns 0x00
T23BC 000:465.298 JLINK_ReadReg(R0)
T23BC 000:465.317 - 0.029ms returns 0x00000000
T23BC 000:466.401 JLINK_WriteReg(R0, 0x08001000)
T23BC 000:466.440 - 0.045ms returns 0x00
T23BC 000:466.450 JLINK_WriteReg(R1, 0x00000800)
T23BC 000:466.458 - 0.012ms returns 0x00
T23BC 000:466.467 JLINK_WriteReg(R2, 0x000000FF)
T23BC 000:466.475 - 0.011ms returns 0x00
T23BC 000:466.484 JLINK_WriteReg(R3, 0x00000000)
T23BC 000:466.492 - 0.011ms returns 0x00
T23BC 000:466.500 JLINK_WriteReg(R4, 0x00000000)
T23BC 000:466.508 - 0.011ms returns 0x00
T23BC 000:466.517 JLINK_WriteReg(R5, 0x00000000)
T23BC 000:466.524 - 0.011ms returns 0x00
T23BC 000:466.533 JLINK_WriteReg(R6, 0x00000000)
T23BC 000:466.540 - 0.011ms returns 0x00
T23BC 000:466.549 JLINK_WriteReg(R7, 0x00000000)
T23BC 000:466.556 - 0.011ms returns 0x00
T23BC 000:466.565 JLINK_WriteReg(R8, 0x00000000)
T23BC 000:466.572 - 0.011ms returns 0x00
T23BC 000:466.580 JLINK_WriteReg(R9, 0x20000160)
T23BC 000:466.588 - 0.011ms returns 0x00
T23BC 000:466.596 JLINK_WriteReg(R10, 0x00000000)
T23BC 000:466.604 - 0.011ms returns 0x00
T23BC 000:466.612 JLINK_WriteReg(R11, 0x00000000)
T23BC 000:466.620 - 0.011ms returns 0x00
T23BC 000:466.638 JLINK_WriteReg(R12, 0x00000000)
T23BC 000:466.651 - 0.017ms returns 0x00
T23BC 000:466.660 JLINK_WriteReg(R13 (SP), 0x20000800)
T23BC 000:466.668 - 0.012ms returns 0x00
T23BC 000:466.676 JLINK_WriteReg(R14, 0x20000001)
T23BC 000:466.684 - 0.011ms returns 0x00
T23BC 000:466.692 JLINK_WriteReg(R15 (PC), 0x20000020)
T23BC 000:466.700 - 0.011ms returns 0x00
T23BC 000:466.709 JLINK_WriteReg(XPSR, 0x01000000)
T23BC 000:466.716 - 0.011ms returns 0x00
T23BC 000:466.725 JLINK_WriteReg(MSP, 0x20000800)
T23BC 000:466.732 - 0.011ms returns 0x00
T23BC 000:466.741 JLINK_WriteReg(PSP, 0x20000800)
T23BC 000:466.749 - 0.011ms returns 0x00
T23BC 000:466.757 JLINK_WriteReg(CFBP, 0x00000000)
T23BC 000:466.765 - 0.011ms returns 0x00
T23BC 000:466.774   JLINK_SetBPEx(Addr = 0x20000000, Type = 0xFFFFFFF2)
T23BC 000:466.787 - 0.016ms returns 0x00000006
T23BC 000:466.796 JLINK_Go()
T23BC 000:466.819    -- CPU_ReadMem(4 bytes @ 0xE0001000)
T23BC 000:468.549 - 1.767ms
T23BC 000:468.578 JLINK_IsHalted()
T23BC 000:470.318    -- CPU_ReadMem(2 bytes @ 0x20000000)
T23BC 000:470.801 - 2.230ms returns TRUE
T23BC 000:470.823 JLINK_ReadReg(R15 (PC))
T23BC 000:470.841 - 0.024ms returns 0x20000000
T23BC 000:470.858 JLINK_ClrBPEx(BPHandle = 0x00000006)
T23BC 000:470.874 - 0.022ms returns 0x00
T23BC 000:470.891 JLINK_ReadReg(R0)
T23BC 000:470.908 - 0.023ms returns 0x00000001
T23BC 000:470.970 JLINK_WriteReg(R0, 0x08001000)
T23BC 000:470.983 - 0.016ms returns 0x00
T23BC 000:470.992 JLINK_WriteReg(R1, 0x00000800)
T23BC 000:471.000 - 0.011ms returns 0x00
T23BC 000:471.008 JLINK_WriteReg(R2, 0x000000FF)
T23BC 000:471.016 - 0.011ms returns 0x00
T23BC 000:471.024 JLINK_WriteReg(R3, 0x00000000)
T23BC 000:471.032 - 0.011ms returns 0x00
T23BC 000:471.040 JLINK_WriteReg(R4, 0x00000000)
T23BC 000:471.047 - 0.011ms returns 0x00
T23BC 000:471.057 JLINK_WriteReg(R5, 0x00000000)
T23BC 000:471.064 - 0.011ms returns 0x00
T23BC 000:471.072 JLINK_WriteReg(R6, 0x00000000)
T23BC 000:471.080 - 0.011ms returns 0x00
T23BC 000:471.088 JLINK_WriteReg(R7, 0x00000000)
T23BC 000:471.096 - 0.011ms returns 0x00
T23BC 000:471.104 JLINK_WriteReg(R8, 0x00000000)
T23BC 000:471.111 - 0.011ms returns 0x00
T23BC 000:471.120 JLINK_WriteReg(R9, 0x20000160)
T23BC 000:471.127 - 0.011ms returns 0x00
T23BC 000:471.136 JLINK_WriteReg(R10, 0x00000000)
T23BC 000:471.143 - 0.011ms returns 0x00
T23BC 000:471.152 JLINK_WriteReg(R11, 0x00000000)
T23BC 000:471.159 - 0.011ms returns 0x00
T23BC 000:471.168 JLINK_WriteReg(R12, 0x00000000)
T23BC 000:471.175 - 0.011ms returns 0x00
T23BC 000:471.184 JLINK_WriteReg(R13 (SP), 0x20000800)
T23BC 000:471.192 - 0.011ms returns 0x00
T23BC 000:471.200 JLINK_WriteReg(R14, 0x20000001)
T23BC 000:471.208 - 0.011ms returns 0x00
T23BC 000:471.216 JLINK_WriteReg(R15 (PC), 0x200000B6)
T23BC 000:471.224 - 0.011ms returns 0x00
T23BC 000:471.232 JLINK_WriteReg(XPSR, 0x01000000)
T23BC 000:471.240 - 0.011ms returns 0x00
T23BC 000:471.248 JLINK_WriteReg(MSP, 0x20000800)
T23BC 000:471.256 - 0.011ms returns 0x00
T23BC 000:471.264 JLINK_WriteReg(PSP, 0x20000800)
T23BC 000:471.272 - 0.011ms returns 0x00
T23BC 000:471.280 JLINK_WriteReg(CFBP, 0x00000000)
T23BC 000:471.288 - 0.011ms returns 0x00
T23BC 000:471.297   JLINK_SetBPEx(Addr = 0x20000000, Type = 0xFFFFFFF2)
T23BC 000:471.309 - 0.016ms returns 0x00000007
T23BC 000:471.318 JLINK_Go()
T23BC 000:471.332    -- CPU_ReadMem(4 bytes @ 0xE0001000)
T23BC 000:473.050 - 1.747ms
T23BC 000:473.074 JLINK_IsHalted()
T23BC 000:473.547 - 0.480ms returns FALSE
T23BC 000:474.851 JLINK_IsHalted()
T23BC 000:475.301 - 0.460ms returns FALSE
T23BC 000:476.833 JLINK_IsHalted()
T23BC 000:477.303 - 0.477ms returns FALSE
T23BC 000:478.829 JLINK_IsHalted()
T23BC 000:479.296 - 0.475ms returns FALSE
T23BC 000:481.855 JLINK_IsHalted()
T23BC 000:482.425 - 0.584ms returns FALSE
T23BC 000:483.834 JLINK_IsHalted()
T23BC 000:484.305 - 0.481ms returns FALSE
T23BC 000:485.834 JLINK_IsHalted()
T23BC 000:486.305 - 0.479ms returns FALSE
T23BC 000:487.834 JLINK_IsHalted()
T23BC 000:488.470 - 0.647ms returns FALSE
T23BC 000:489.826 JLINK_IsHalted()
T23BC 000:490.329 - 0.510ms returns FALSE
T23BC 000:491.828 JLINK_IsHalted()
T23BC 000:492.328 - 0.508ms returns FALSE
T23BC 000:495.821 JLINK_IsHalted()
T23BC 000:497.737    -- CPU_ReadMem(2 bytes @ 0x20000000)
T23BC 000:498.187 - 2.383ms returns TRUE
T23BC 000:498.225 JLINK_ReadReg(R15 (PC))
T23BC 000:498.249 - 0.032ms returns 0x20000000
T23BC 000:498.271 JLINK_ClrBPEx(BPHandle = 0x00000007)
T23BC 000:498.291 - 0.027ms returns 0x00
T23BC 000:498.313 JLINK_ReadReg(R0)
T23BC 000:498.331 - 0.026ms returns 0x00000000
T23BC 000:499.343 JLINK_WriteReg(R0, 0x08001800)
T23BC 000:499.375 - 0.037ms returns 0x00
T23BC 000:499.384 JLINK_WriteReg(R1, 0x00000800)
T23BC 000:499.393 - 0.012ms returns 0x00
T23BC 000:499.402 JLINK_WriteReg(R2, 0x000000FF)
T23BC 000:499.409 - 0.011ms returns 0x00
T23BC 000:499.418 JLINK_WriteReg(R3, 0x00000000)
T23BC 000:499.425 - 0.011ms returns 0x00
T23BC 000:499.434 JLINK_WriteReg(R4, 0x00000000)
T23BC 000:499.442 - 0.011ms returns 0x00
T23BC 000:499.450 JLINK_WriteReg(R5, 0x00000000)
T23BC 000:499.458 - 0.011ms returns 0x00
T23BC 000:499.466 JLINK_WriteReg(R6, 0x00000000)
T23BC 000:499.474 - 0.011ms returns 0x00
T23BC 000:499.482 JLINK_WriteReg(R7, 0x00000000)
T23BC 000:499.490 - 0.011ms returns 0x00
T23BC 000:499.499 JLINK_WriteReg(R8, 0x00000000)
T23BC 000:499.506 - 0.011ms returns 0x00
T23BC 000:499.515 JLINK_WriteReg(R9, 0x20000160)
T23BC 000:499.522 - 0.011ms returns 0x00
T23BC 000:499.531 JLINK_WriteReg(R10, 0x00000000)
T23BC 000:499.539 - 0.011ms returns 0x00
T23BC 000:499.547 JLINK_WriteReg(R11, 0x00000000)
T23BC 000:499.555 - 0.011ms returns 0x00
T23BC 000:499.563 JLINK_WriteReg(R12, 0x00000000)
T23BC 000:499.571 - 0.011ms returns 0x00
T23BC 000:499.580 JLINK_WriteReg(R13 (SP), 0x20000800)
T23BC 000:499.588 - 0.012ms returns 0x00
T23BC 000:499.597 JLINK_WriteReg(R14, 0x20000001)
T23BC 000:499.604 - 0.011ms returns 0x00
T23BC 000:499.613 JLINK_WriteReg(R15 (PC), 0x20000020)
T23BC 000:499.621 - 0.011ms returns 0x00
T23BC 000:499.629 JLINK_WriteReg(XPSR, 0x01000000)
T23BC 000:499.637 - 0.011ms returns 0x00
T23BC 000:499.646 JLINK_WriteReg(MSP, 0x20000800)
T23BC 000:499.653 - 0.011ms returns 0x00
T23BC 000:499.662 JLINK_WriteReg(PSP, 0x20000800)
T23BC 000:499.669 - 0.011ms returns 0x00
T23BC 000:499.678 JLINK_WriteReg(CFBP, 0x00000000)
T23BC 000:499.686 - 0.011ms returns 0x00
T23BC 000:499.695   JLINK_SetBPEx(Addr = 0x20000000, Type = 0xFFFFFFF2)
T23BC 000:499.708 - 0.016ms returns 0x00000008
T23BC 000:499.717 JLINK_Go()
T23BC 000:499.737    -- CPU_ReadMem(4 bytes @ 0xE0001000)
T23BC 000:501.704 - 2.004ms
T23BC 000:501.729 JLINK_IsHalted()
T23BC 000:503.593    -- CPU_ReadMem(2 bytes @ 0x20000000)
T23BC 000:504.080 - 2.358ms returns TRUE
T23BC 000:504.094 JLINK_ReadReg(R15 (PC))
T23BC 000:504.105 - 0.014ms returns 0x20000000
T23BC 000:504.114 JLINK_ClrBPEx(BPHandle = 0x00000008)
T23BC 000:504.122 - 0.011ms returns 0x00
T23BC 000:504.130 JLINK_ReadReg(R0)
T23BC 000:504.138 - 0.011ms returns 0x00000001
T23BC 000:504.149 JLINK_WriteReg(R0, 0x08001800)
T23BC 000:504.157 - 0.011ms returns 0x00
T23BC 000:504.166 JLINK_WriteReg(R1, 0x00000800)
T23BC 000:504.173 - 0.011ms returns 0x00
T23BC 000:504.182 JLINK_WriteReg(R2, 0x000000FF)
T23BC 000:504.189 - 0.011ms returns 0x00
T23BC 000:504.198 JLINK_WriteReg(R3, 0x00000000)
T23BC 000:504.205 - 0.011ms returns 0x00
T23BC 000:504.214 JLINK_WriteReg(R4, 0x00000000)
T23BC 000:504.221 - 0.011ms returns 0x00
T23BC 000:504.230 JLINK_WriteReg(R5, 0x00000000)
T23BC 000:504.237 - 0.011ms returns 0x00
T23BC 000:504.246 JLINK_WriteReg(R6, 0x00000000)
T23BC 000:504.253 - 0.011ms returns 0x00
T23BC 000:504.262 JLINK_WriteReg(R7, 0x00000000)
T23BC 000:504.269 - 0.011ms returns 0x00
T23BC 000:504.278 JLINK_WriteReg(R8, 0x00000000)
T23BC 000:504.285 - 0.011ms returns 0x00
T23BC 000:504.294 JLINK_WriteReg(R9, 0x20000160)
T23BC 000:504.301 - 0.011ms returns 0x00
T23BC 000:504.310 JLINK_WriteReg(R10, 0x00000000)
T23BC 000:504.323 - 0.019ms returns 0x00
T23BC 000:504.335 JLINK_WriteReg(R11, 0x00000000)
T23BC 000:504.342 - 0.011ms returns 0x00
T23BC 000:504.351 JLINK_WriteReg(R12, 0x00000000)
T23BC 000:504.358 - 0.011ms returns 0x00
T23BC 000:504.367 JLINK_WriteReg(R13 (SP), 0x20000800)
T23BC 000:504.375 - 0.011ms returns 0x00
T23BC 000:504.383 JLINK_WriteReg(R14, 0x20000001)
T23BC 000:504.391 - 0.011ms returns 0x00
T23BC 000:504.399 JLINK_WriteReg(R15 (PC), 0x200000B6)
T23BC 000:504.407 - 0.011ms returns 0x00
T23BC 000:504.415 JLINK_WriteReg(XPSR, 0x01000000)
T23BC 000:504.423 - 0.011ms returns 0x00
T23BC 000:504.431 JLINK_WriteReg(MSP, 0x20000800)
T23BC 000:504.439 - 0.011ms returns 0x00
T23BC 000:504.447 JLINK_WriteReg(PSP, 0x20000800)
T23BC 000:504.454 - 0.011ms returns 0x00
T23BC 000:504.463 JLINK_WriteReg(CFBP, 0x00000000)
T23BC 000:504.470 - 0.011ms returns 0x00
T23BC 000:504.479   JLINK_SetBPEx(Addr = 0x20000000, Type = 0xFFFFFFF2)
T23BC 000:504.491 - 0.015ms returns 0x00000009
T23BC 000:504.499 JLINK_Go()
T23BC 000:504.513    -- CPU_ReadMem(4 bytes @ 0xE0001000)
T23BC 000:506.341 - 1.852ms
T23BC 000:506.359 JLINK_IsHalted()
T23BC 000:506.831 - 0.479ms returns FALSE
T23BC 000:508.819 JLINK_IsHalted()
T23BC 000:509.303 - 0.501ms returns FALSE
T23BC 000:510.816 JLINK_IsHalted()
T23BC 000:511.299 - 0.494ms returns FALSE
T23BC 000:512.817 JLINK_IsHalted()
T23BC 000:513.329 - 0.519ms returns FALSE
T23BC 000:514.824 JLINK_IsHalted()
T23BC 000:515.315 - 0.514ms returns FALSE
T23BC 000:516.828 JLINK_IsHalted()
T23BC 000:517.211 - 0.390ms returns FALSE
T23BC 000:518.824 JLINK_IsHalted()
T23BC 000:519.330 - 0.514ms returns FALSE
T23BC 000:520.807 JLINK_IsHalted()
T23BC 000:521.301 - 0.504ms returns FALSE
T23BC 000:522.807 JLINK_IsHalted()
T23BC 000:523.332 - 0.533ms returns FALSE
T23BC 000:535.812 JLINK_IsHalted()
T23BC 000:537.826    -- CPU_ReadMem(2 bytes @ 0x20000000)
T23BC 000:538.335 - 2.536ms returns TRUE
T23BC 000:538.360 JLINK_ReadReg(R15 (PC))
T23BC 000:538.375 - 0.020ms returns 0x20000000
T23BC 000:538.387 JLINK_ClrBPEx(BPHandle = 0x00000009)
T23BC 000:538.398 - 0.014ms returns 0x00
T23BC 000:538.408 JLINK_ReadReg(R0)
T23BC 000:538.416 - 0.012ms returns 0x00000000
T23BC 000:539.367 JLINK_WriteReg(R0, 0x08002000)
T23BC 000:539.395 - 0.034ms returns 0x00
T23BC 000:539.408 JLINK_WriteReg(R1, 0x00000800)
T23BC 000:539.426 - 0.028ms returns 0x00
T23BC 000:539.443 JLINK_WriteReg(R2, 0x000000FF)
T23BC 000:539.453 - 0.016ms returns 0x00
T23BC 000:539.468 JLINK_WriteReg(R3, 0x00000000)
T23BC 000:539.477 - 0.013ms returns 0x00
T23BC 000:539.486 JLINK_WriteReg(R4, 0x00000000)
T23BC 000:539.494 - 0.011ms returns 0x00
T23BC 000:539.502 JLINK_WriteReg(R5, 0x00000000)
T23BC 000:539.510 - 0.011ms returns 0x00
T23BC 000:539.519 JLINK_WriteReg(R6, 0x00000000)
T23BC 000:539.526 - 0.011ms returns 0x00
T23BC 000:539.535 JLINK_WriteReg(R7, 0x00000000)
T23BC 000:539.553 - 0.029ms returns 0x00
T23BC 000:539.573 JLINK_WriteReg(R8, 0x00000000)
T23BC 000:539.586 - 0.017ms returns 0x00
T23BC 000:539.595 JLINK_WriteReg(R9, 0x20000160)
T23BC 000:539.608 - 0.022ms returns 0x00
T23BC 000:539.626 JLINK_WriteReg(R10, 0x00000000)
T23BC 000:539.635 - 0.013ms returns 0x00
T23BC 000:539.648 JLINK_WriteReg(R11, 0x00000000)
T23BC 000:539.657 - 0.012ms returns 0x00
T23BC 000:539.671 JLINK_WriteReg(R12, 0x00000000)
T23BC 000:539.687 - 0.025ms returns 0x00
T23BC 000:539.711 JLINK_WriteReg(R13 (SP), 0x20000800)
T23BC 000:539.727 - 0.026ms returns 0x00
T23BC 000:539.748 JLINK_WriteReg(R14, 0x20000001)
T23BC 000:539.763 - 0.020ms returns 0x00
T23BC 000:539.777 JLINK_WriteReg(R15 (PC), 0x20000020)
T23BC 000:539.796 - 0.028ms returns 0x00
T23BC 000:539.815 JLINK_WriteReg(XPSR, 0x01000000)
T23BC 000:539.828 - 0.018ms returns 0x00
T23BC 000:539.846 JLINK_WriteReg(MSP, 0x20000800)
T23BC 000:539.861 - 0.022ms returns 0x00
T23BC 000:539.876 JLINK_WriteReg(PSP, 0x20000800)
T23BC 000:539.885 - 0.012ms returns 0x00
T23BC 000:539.893 JLINK_WriteReg(CFBP, 0x00000000)
T23BC 000:539.901 - 0.011ms returns 0x00
T23BC 000:539.916   JLINK_SetBPEx(Addr = 0x20000000, Type = 0xFFFFFFF2)
T23BC 000:539.933 - 0.021ms returns 0x0000000A
T23BC 000:539.942 JLINK_Go()
T23BC 000:539.960    -- CPU_ReadMem(4 bytes @ 0xE0001000)
T23BC 000:541.800 - 1.869ms
T23BC 000:541.819 JLINK_IsHalted()
T23BC 000:543.738    -- CPU_ReadMem(2 bytes @ 0x20000000)
T23BC 000:544.185 - 2.380ms returns TRUE
T23BC 000:544.216 JLINK_ReadReg(R15 (PC))
T23BC 000:544.235 - 0.027ms returns 0x20000000
T23BC 000:544.251 JLINK_ClrBPEx(BPHandle = 0x0000000A)
T23BC 000:544.264 - 0.019ms returns 0x00
T23BC 000:544.279 JLINK_ReadReg(R0)
T23BC 000:544.291 - 0.019ms returns 0x00000001
T23BC 000:544.310 JLINK_WriteReg(R0, 0x08002000)
T23BC 000:544.325 - 0.021ms returns 0x00
T23BC 000:544.339 JLINK_WriteReg(R1, 0x00000800)
T23BC 000:544.351 - 0.018ms returns 0x00
T23BC 000:544.365 JLINK_WriteReg(R2, 0x000000FF)
T23BC 000:544.377 - 0.018ms returns 0x00
T23BC 000:544.391 JLINK_WriteReg(R3, 0x00000000)
T23BC 000:544.404 - 0.018ms returns 0x00
T23BC 000:544.421 JLINK_WriteReg(R4, 0x00000000)
T23BC 000:544.436 - 0.021ms returns 0x00
T23BC 000:544.450 JLINK_WriteReg(R5, 0x00000000)
T23BC 000:544.464 - 0.020ms returns 0x00
T23BC 000:544.480 JLINK_WriteReg(R6, 0x00000000)
T23BC 000:544.493 - 0.020ms returns 0x00
T23BC 000:544.508 JLINK_WriteReg(R7, 0x00000000)
T23BC 000:544.522 - 0.020ms returns 0x00
T23BC 000:544.537 JLINK_WriteReg(R8, 0x00000000)
T23BC 000:544.550 - 0.019ms returns 0x00
T23BC 000:544.565 JLINK_WriteReg(R9, 0x20000160)
T23BC 000:544.579 - 0.019ms returns 0x00
T23BC 000:544.593 JLINK_WriteReg(R10, 0x00000000)
T23BC 000:544.607 - 0.020ms returns 0x00
T23BC 000:544.622 JLINK_WriteReg(R11, 0x00000000)
T23BC 000:544.635 - 0.020ms returns 0x00
T23BC 000:544.650 JLINK_WriteReg(R12, 0x00000000)
T23BC 000:544.671 - 0.028ms returns 0x00
T23BC 000:544.688 JLINK_WriteReg(R13 (SP), 0x20000800)
T23BC 000:544.707 - 0.028ms returns 0x00
T23BC 000:544.731 JLINK_WriteReg(R14, 0x20000001)
T23BC 000:544.752 - 0.028ms returns 0x00
T23BC 000:544.770 JLINK_WriteReg(R15 (PC), 0x200000B6)
T23BC 000:544.786 - 0.022ms returns 0x00
T23BC 000:544.803 JLINK_WriteReg(XPSR, 0x01000000)
T23BC 000:544.823 - 0.030ms returns 0x00
T23BC 000:544.845 JLINK_WriteReg(MSP, 0x20000800)
T23BC 000:544.864 - 0.025ms returns 0x00
T23BC 000:544.882 JLINK_WriteReg(PSP, 0x20000800)
T23BC 000:544.904 - 0.030ms returns 0x00
T23BC 000:544.921 JLINK_WriteReg(CFBP, 0x00000000)
T23BC 000:544.933 - 0.018ms returns 0x00
T23BC 000:544.949   JLINK_SetBPEx(Addr = 0x20000000, Type = 0xFFFFFFF2)
T23BC 000:544.969 - 0.026ms returns 0x0000000B
T23BC 000:544.983 JLINK_Go()
T23BC 000:545.010    -- CPU_ReadMem(4 bytes @ 0xE0001000)
T23BC 000:547.062 - 2.106ms
T23BC 000:547.103 JLINK_IsHalted()
T23BC 000:547.558 - 0.471ms returns FALSE
T23BC 000:555.067 JLINK_IsHalted()
T23BC 000:555.686 - 0.640ms returns FALSE
T23BC 000:557.050 JLINK_IsHalted()
T23BC 000:557.558 - 0.523ms returns FALSE
T23BC 000:559.057 JLINK_IsHalted()
T23BC 000:559.695 - 0.672ms returns FALSE
T23BC 000:566.044 JLINK_IsHalted()
T23BC 000:566.584 - 0.571ms returns FALSE
T23BC 000:568.050 JLINK_IsHalted()
T23BC 000:568.591 - 0.557ms returns FALSE
T23BC 000:570.065 JLINK_IsHalted()
T23BC 000:572.144    -- CPU_ReadMem(2 bytes @ 0x20000000)
T23BC 000:572.710 - 2.660ms returns TRUE
T23BC 000:572.737 JLINK_ReadReg(R15 (PC))
T23BC 000:572.751 - 0.018ms returns 0x20000000
T23BC 000:572.761 JLINK_ClrBPEx(BPHandle = 0x0000000B)
T23BC 000:572.770 - 0.012ms returns 0x00
T23BC 000:572.780 JLINK_ReadReg(R0)
T23BC 000:572.788 - 0.011ms returns 0x00000000
T23BC 000:573.392 JLINK_WriteReg(R0, 0x08002800)
T23BC 000:573.410 - 0.023ms returns 0x00
T23BC 000:573.420 JLINK_WriteReg(R1, 0x00000800)
T23BC 000:573.428 - 0.011ms returns 0x00
T23BC 000:573.437 JLINK_WriteReg(R2, 0x000000FF)
T23BC 000:573.445 - 0.012ms returns 0x00
T23BC 000:573.454 JLINK_WriteReg(R3, 0x00000000)
T23BC 000:573.461 - 0.011ms returns 0x00
T23BC 000:573.470 JLINK_WriteReg(R4, 0x00000000)
T23BC 000:573.477 - 0.011ms returns 0x00
T23BC 000:573.491 JLINK_WriteReg(R5, 0x00000000)
T23BC 000:573.503 - 0.016ms returns 0x00
T23BC 000:573.512 JLINK_WriteReg(R6, 0x00000000)
T23BC 000:573.520 - 0.011ms returns 0x00
T23BC 000:573.528 JLINK_WriteReg(R7, 0x00000000)
T23BC 000:573.536 - 0.011ms returns 0x00
T23BC 000:573.544 JLINK_WriteReg(R8, 0x00000000)
T23BC 000:573.552 - 0.011ms returns 0x00
T23BC 000:573.560 JLINK_WriteReg(R9, 0x20000160)
T23BC 000:573.568 - 0.011ms returns 0x00
T23BC 000:573.576 JLINK_WriteReg(R10, 0x00000000)
T23BC 000:573.584 - 0.011ms returns 0x00
T23BC 000:573.593 JLINK_WriteReg(R11, 0x00000000)
T23BC 000:573.601 - 0.011ms returns 0x00
T23BC 000:573.609 JLINK_WriteReg(R12, 0x00000000)
T23BC 000:573.617 - 0.011ms returns 0x00
T23BC 000:573.626 JLINK_WriteReg(R13 (SP), 0x20000800)
T23BC 000:573.634 - 0.011ms returns 0x00
T23BC 000:573.642 JLINK_WriteReg(R14, 0x20000001)
T23BC 000:573.650 - 0.011ms returns 0x00
T23BC 000:573.658 JLINK_WriteReg(R15 (PC), 0x20000020)
T23BC 000:573.666 - 0.011ms returns 0x00
T23BC 000:573.675 JLINK_WriteReg(XPSR, 0x01000000)
T23BC 000:573.682 - 0.011ms returns 0x00
T23BC 000:573.691 JLINK_WriteReg(MSP, 0x20000800)
T23BC 000:573.698 - 0.011ms returns 0x00
T23BC 000:573.707 JLINK_WriteReg(PSP, 0x20000800)
T23BC 000:573.714 - 0.011ms returns 0x00
T23BC 000:573.723 JLINK_WriteReg(CFBP, 0x00000000)
T23BC 000:573.730 - 0.011ms returns 0x00
T23BC 000:573.740   JLINK_SetBPEx(Addr = 0x20000000, Type = 0xFFFFFFF2)
T23BC 000:573.751 - 0.015ms returns 0x0000000C
T23BC 000:573.760 JLINK_Go()
T23BC 000:573.778    -- CPU_ReadMem(4 bytes @ 0xE0001000)
T23BC 000:575.705 - 1.959ms
T23BC 000:575.738 JLINK_IsHalted()
T23BC 000:577.620    -- CPU_ReadMem(2 bytes @ 0x20000000)
T23BC 000:578.079 - 2.350ms returns TRUE
T23BC 000:578.106 JLINK_ReadReg(R15 (PC))
T23BC 000:578.127 - 0.027ms returns 0x20000000
T23BC 000:578.144 JLINK_ClrBPEx(BPHandle = 0x0000000C)
T23BC 000:578.160 - 0.023ms returns 0x00
T23BC 000:578.177 JLINK_ReadReg(R0)
T23BC 000:578.194 - 0.023ms returns 0x00000001
T23BC 000:578.270 JLINK_WriteReg(R0, 0x08002800)
T23BC 000:578.284 - 0.018ms returns 0x00
T23BC 000:578.294 JLINK_WriteReg(R1, 0x00000800)
T23BC 000:578.301 - 0.011ms returns 0x00
T23BC 000:578.310 JLINK_WriteReg(R2, 0x000000FF)
T23BC 000:578.317 - 0.011ms returns 0x00
T23BC 000:578.326 JLINK_WriteReg(R3, 0x00000000)
T23BC 000:578.333 - 0.011ms returns 0x00
T23BC 000:578.342 JLINK_WriteReg(R4, 0x00000000)
T23BC 000:578.349 - 0.011ms returns 0x00
T23BC 000:578.358 JLINK_WriteReg(R5, 0x00000000)
T23BC 000:578.365 - 0.011ms returns 0x00
T23BC 000:578.374 JLINK_WriteReg(R6, 0x00000000)
T23BC 000:578.381 - 0.011ms returns 0x00
T23BC 000:578.390 JLINK_WriteReg(R7, 0x00000000)
T23BC 000:578.397 - 0.011ms returns 0x00
T23BC 000:578.406 JLINK_WriteReg(R8, 0x00000000)
T23BC 000:578.414 - 0.011ms returns 0x00
T23BC 000:578.422 JLINK_WriteReg(R9, 0x20000160)
T23BC 000:578.429 - 0.011ms returns 0x00
T23BC 000:578.438 JLINK_WriteReg(R10, 0x00000000)
T23BC 000:578.445 - 0.011ms returns 0x00
T23BC 000:578.454 JLINK_WriteReg(R11, 0x00000000)
T23BC 000:578.462 - 0.011ms returns 0x00
T23BC 000:578.470 JLINK_WriteReg(R12, 0x00000000)
T23BC 000:578.478 - 0.011ms returns 0x00
T23BC 000:578.486 JLINK_WriteReg(R13 (SP), 0x20000800)
T23BC 000:578.494 - 0.011ms returns 0x00
T23BC 000:578.502 JLINK_WriteReg(R14, 0x20000001)
T23BC 000:578.510 - 0.011ms returns 0x00
T23BC 000:578.518 JLINK_WriteReg(R15 (PC), 0x200000B6)
T23BC 000:578.526 - 0.011ms returns 0x00
T23BC 000:578.534 JLINK_WriteReg(XPSR, 0x01000000)
T23BC 000:578.542 - 0.011ms returns 0x00
T23BC 000:578.550 JLINK_WriteReg(MSP, 0x20000800)
T23BC 000:578.558 - 0.011ms returns 0x00
T23BC 000:578.566 JLINK_WriteReg(PSP, 0x20000800)
T23BC 000:578.574 - 0.011ms returns 0x00
T23BC 000:578.582 JLINK_WriteReg(CFBP, 0x00000000)
T23BC 000:578.590 - 0.011ms returns 0x00
T23BC 000:578.599   JLINK_SetBPEx(Addr = 0x20000000, Type = 0xFFFFFFF2)
T23BC 000:578.611 - 0.016ms returns 0x0000000D
T23BC 000:578.620 JLINK_Go()
T23BC 000:578.636    -- CPU_ReadMem(4 bytes @ 0xE0001000)
T23BC 000:580.581 - 1.979ms
T23BC 000:580.610 JLINK_IsHalted()
T23BC 000:581.062 - 0.474ms returns FALSE
T23BC 000:583.038 JLINK_IsHalted()
T23BC 000:583.582 - 0.558ms returns FALSE
T23BC 000:585.051 JLINK_IsHalted()
T23BC 000:585.558 - 0.524ms returns FALSE
T23BC 000:587.030 JLINK_IsHalted()
T23BC 000:587.549 - 0.527ms returns FALSE
T23BC 000:589.022 JLINK_IsHalted()
T23BC 000:589.558 - 0.553ms returns FALSE
T23BC 000:591.022 JLINK_IsHalted()
T23BC 000:591.549 - 0.536ms returns FALSE
T23BC 000:595.022 JLINK_IsHalted()
T23BC 000:595.553 - 0.547ms returns FALSE
T23BC 000:597.016 JLINK_IsHalted()
T23BC 000:597.429 - 0.425ms returns FALSE
T23BC 000:599.021 JLINK_IsHalted()
T23BC 000:599.581 - 0.599ms returns FALSE
T23BC 000:601.014 JLINK_IsHalted()
T23BC 000:601.550 - 0.544ms returns FALSE
T23BC 000:603.002 JLINK_IsHalted()
T23BC 000:604.696    -- CPU_ReadMem(2 bytes @ 0x20000000)
T23BC 000:605.175 - 2.183ms returns TRUE
T23BC 000:605.202 JLINK_ReadReg(R15 (PC))
T23BC 000:605.222 - 0.026ms returns 0x20000000
T23BC 000:605.239 JLINK_ClrBPEx(BPHandle = 0x0000000D)
T23BC 000:605.255 - 0.023ms returns 0x00
T23BC 000:605.273 JLINK_ReadReg(R0)
T23BC 000:605.289 - 0.024ms returns 0x00000000
T23BC 000:605.898 JLINK_WriteReg(R0, 0x08003000)
T23BC 000:605.917 - 0.023ms returns 0x00
T23BC 000:605.926 JLINK_WriteReg(R1, 0x00000800)
T23BC 000:605.934 - 0.011ms returns 0x00
T23BC 000:605.943 JLINK_WriteReg(R2, 0x000000FF)
T23BC 000:605.950 - 0.011ms returns 0x00
T23BC 000:605.959 JLINK_WriteReg(R3, 0x00000000)
T23BC 000:605.967 - 0.011ms returns 0x00
T23BC 000:605.976 JLINK_WriteReg(R4, 0x00000000)
T23BC 000:605.983 - 0.011ms returns 0x00
T23BC 000:605.993 JLINK_WriteReg(R5, 0x00000000)
T23BC 000:606.016 - 0.028ms returns 0x00
T23BC 000:606.031 JLINK_WriteReg(R6, 0x00000000)
